
T22D00 000:329 SEGGER J-Link V4.98e Log File (0001ms, 0272ms total)
T22D00 000:329 DLL Compiled: May  5 2015 11:00:52 (0001ms, 0272ms total)
T22D00 000:329 Logging started @ 2016-03-21 14:23 (0001ms, 0272ms total)
T22D00 000:330 JLINK_SetWarnOutHandler(...) (0000ms, 0272ms total)
T22D00 000:330 JLINK_OpenEx(...)
Firmware: J-Link ARM-OB STM32 compiled Aug 22 2012 19:52:04
Hardware: V7.00
S/N: 20090928
Feature(s): RDI,FlashDL,FlashBP,JFlash,GDBFull  returns O.K. (0302ms, 0574ms total)
T22D00 000:634 JLINK_SetErrorOutHandler(...) (0000ms, 0574ms total)
T22D00 000:634 JLINK_ExecCommand("ProjectFile = "E:\SourceCode\STM32F4\JUMA\IncPlatfrom\JUMA_PRJ\Project\JUMA_IMU\MDK_ARM\JLinkSettings.ini"", ...)Device "STM32F401RE" selected.  returns 0x00 (0004ms, 0578ms total)
T22D00 000:638 JLINK_ExecCommand("Device = STM32F401RETx", ...)Device "STM32F401RE" selected.  returns 0x00 (0007ms, 0585ms total)
T22D00 000:645 JLINK_ExecCommand("DisableConnectionTimeout", ...)  returns 0x01 (0000ms, 0585ms total)
T22D00 000:645 JLINK_GetHardwareVersion()  returns 0x11170 (0000ms, 0585ms total)
T22D00 000:645 JLINK_GetDLLVersion()  returns 49805 (0000ms, 0585ms total)
T22D00 000:645 JLINK_GetFirmwareString(...) (0000ms, 0585ms total)
T22D00 000:654 JLINK_GetDLLVersion()  returns 49805 (0000ms, 0585ms total)
T22D00 000:654 JLINK_GetCompileDateTime() (0000ms, 0585ms total)
T22D00 000:656 JLINK_GetFirmwareString(...) (0000ms, 0585ms total)
T22D00 000:657 JLINK_GetHardwareVersion()  returns 0x11170 (0000ms, 0586ms total)
T22D00 000:671 JLINK_TIF_Select(JLINKARM_TIF_SWD)  returns 0x00 (0001ms, 0587ms total)
T22D00 000:672 JLINK_SetSpeed(5000) (0001ms, 0588ms total)
T22D00 000:673 JLINK_GetId() >0x108 TIF>Found SWD-DP with ID 0x2BA01477 >0x0D TIF> >0x28 TIF> >0x0D TIF> >0x28 TIF> >0x0D TIF> >0x21 TIF> >0x0D TIF> >0x28 TIF> >0x0D TIF> >0x28 TIF> >0x0D TIF> >0x28 TIF> >0x0D TIF> >0x21 TIF> >0x0D TIF> >0x21 TIF> >0x0D TIF> >0x28 TIF> >0x0D TIF> >0x21 TIF> >0x0D TIF> >0x21 TIF> >0x0D TIF> >0x28 TIF> >0x0D TIF> >0x21 TIF> >0x0D TIF> >0x21 TIF> >0x108 TIF>Found SWD-DP with ID 0x2BA01477 >0x0D TIF> >0x21 TIF> >0x0D TIF> >0x28 TIF> >0x0D TIF> >0x28 TIF> >0x0D TIF>
 >0x21 TIF> >0x0D TIF> >0x28 TIF> >0x0D TIF> >0x21 TIF> >0x0D TIF> >0x21 TIF> >0x0D TIF> >0x21 TIF> >0x0D TIF> >0x21 TIF> >0x0D TIF> >0x28 TIF> >0x0D TIF> >0x28 TIF> >0x0D TIF> >0x21 TIF> >0x0D TIF> >0x28 TIF> >0x0D TIF> >0x28 TIF> >0x0D TIF> >0x28 TIF> >0x0D TIF> >0x21 TIF> >0x0D TIF> >0x21 TIF> >0x0D TIF> >0x28 TIF> >0x0D TIF> >0x21 TIF> >0x0D TIF> >0x21 TIF>Found Cortex-M4 r0p1, Little endian. -- CPU_WriteMem(4 bytes @ 0xE0002000) -- CPU_ReadMem(4 bytes @ 0xE000EDF0)
 -- CPU_ReadMem(4 bytes @ 0xE0002000)FPUnit: 6 code (BP) slots and 2 literal slots -- CPU_ReadMem(4 bytes @ 0xE000EDFC) -- CPU_ReadMem(4 bytes @ 0xE0001000) -- CPU_WriteMem(4 bytes @ 0xE0001000) -- CPU_ReadMem(4 bytes @ 0xE000ED88) -- CPU_WriteMem(4 bytes @ 0xE000ED88) -- CPU_ReadMem(4 bytes @ 0xE000ED88) -- CPU_WriteMem(4 bytes @ 0xE000ED88)CoreSight components:ROMTbl 0 @ E00FF000 -- CPU_ReadMem(16 bytes @ 0xE00FF000) -- CPU_ReadMem(16 bytes @ 0xE000EFF0) -- CPU_ReadMem(16 bytes @ 0xE000EFE0)
ROMTbl 0 [0]: FFF0F000, CID: B105E00D, PID: 000BB00C SCS -- CPU_ReadMem(16 bytes @ 0xE0001FF0) -- CPU_ReadMem(16 bytes @ 0xE0001FE0)ROMTbl 0 [1]: FFF02000, CID: B105E00D, PID: 003BB002 DWT -- CPU_ReadMem(16 bytes @ 0xE0002FF0) -- CPU_ReadMem(16 bytes @ 0xE0002FE0)ROMTbl 0 [2]: FFF03000, CID: B105E00D, PID: 002BB003 FPB -- CPU_ReadMem(16 bytes @ 0xE0000FF0) -- CPU_ReadMem(16 bytes @ 0xE0000FE0)ROMTbl 0 [3]: FFF01000, CID: B105E00D, PID: 003BB001 ITM -- CPU_ReadMem(16 bytes @ 0xE00FF010)
 -- CPU_ReadMem(16 bytes @ 0xE0040FF0) -- CPU_ReadMem(16 bytes @ 0xE0040FE0)ROMTbl 0 [4]: FFF41000, CID: B105900D, PID: 000BB9A1 TPIU -- CPU_ReadMem(16 bytes @ 0xE0041FF0) -- CPU_ReadMem(16 bytes @ 0xE0041FE0)ROMTbl 0 [5]: FFF42000, CID: B105900D, PID: 000BB925 ETM >0x0D TIF> >0x21 TIF>  returns 0x2BA01477 (0071ms, 0659ms total)
T22D00 000:744 JLINK_GetDLLVersion()  returns 49805 (0000ms, 0659ms total)
T22D00 000:744 JLINK_CORE_GetFound()  returns 0xE0000FF (0000ms, 0659ms total)
T22D00 000:744 JLINK_GetDebugInfo(0x100) -- Value=0xE00FF003  returns 0x00 (0000ms, 0659ms total)
T22D00 000:745 JLINK_ReadMem (0xE00FF000, 0x0020 Bytes, ...) -- CPU is running -- CPU_ReadMem(32 bytes @ 0xE00FF000) - Data: 03 F0 F0 FF 03 20 F0 FF 03 30 F0 FF 03 10 F0 FF ...  returns 0x00 (0001ms, 0660ms total)
T22D00 000:746 JLINK_ReadMem (0xE000EFF0, 0x0010 Bytes, ...) -- CPU is running -- CPU_ReadMem(16 bytes @ 0xE000EFF0) - Data: 0D 00 00 00 E0 00 00 00 05 00 00 00 B1 00 00 00  returns 0x00 (0001ms, 0661ms total)
T22D00 000:747 JLINK_ReadMem (0xE000EFD0, 0x0020 Bytes, ...) -- CPU is running -- CPU_ReadMem(32 bytes @ 0xE000EFD0) - Data: 04 00 00 00 00 00 00 00 00 00 00 00 00 00 00 00 ...  returns 0x00 (0001ms, 0662ms total)
T22D00 000:748 JLINK_ReadMem (0xE0001FF0, 0x0010 Bytes, ...) -- CPU is running -- CPU_ReadMem(16 bytes @ 0xE0001FF0) - Data: 0D 00 00 00 E0 00 00 00 05 00 00 00 B1 00 00 00  returns 0x00 (0001ms, 0663ms total)
T22D00 000:749 JLINK_ReadMem (0xE0001FD0, 0x0020 Bytes, ...) -- CPU is running -- CPU_ReadMem(32 bytes @ 0xE0001FD0) - Data: 04 00 00 00 00 00 00 00 00 00 00 00 00 00 00 00 ...  returns 0x00 (0001ms, 0664ms total)
T22D00 000:750 JLINK_ReadMem (0xE0002FF0, 0x0010 Bytes, ...) -- CPU is running -- CPU_ReadMem(16 bytes @ 0xE0002FF0) - Data: 0D 00 00 00 E0 00 00 00 05 00 00 00 B1 00 00 00  returns 0x00 (0001ms, 0665ms total)
T22D00 000:751 JLINK_ReadMem (0xE0002FD0, 0x0020 Bytes, ...) -- CPU is running -- CPU_ReadMem(32 bytes @ 0xE0002FD0) - Data: 04 00 00 00 00 00 00 00 00 00 00 00 00 00 00 00 ...  returns 0x00 (0001ms, 0666ms total)
T22D00 000:752 JLINK_ReadMem (0xE0000FF0, 0x0010 Bytes, ...) -- CPU is running -- CPU_ReadMem(16 bytes @ 0xE0000FF0) - Data: 0D 00 00 00 E0 00 00 00 05 00 00 00 B1 00 00 00  returns 0x00 (0001ms, 0667ms total)
T22D00 000:753 JLINK_ReadMem (0xE0000FD0, 0x0020 Bytes, ...) -- CPU is running -- CPU_ReadMem(32 bytes @ 0xE0000FD0) - Data: 04 00 00 00 00 00 00 00 00 00 00 00 00 00 00 00 ...  returns 0x00 (0001ms, 0668ms total)
T22D00 000:754 JLINK_ReadMem (0xE0040FF0, 0x0010 Bytes, ...) -- CPU is running -- CPU_ReadMem(16 bytes @ 0xE0040FF0) - Data: 0D 00 00 00 90 00 00 00 05 00 00 00 B1 00 00 00  returns 0x00 (0001ms, 0669ms total)
T22D00 000:755 JLINK_ReadMem (0xE0040FD0, 0x0020 Bytes, ...) -- CPU is running -- CPU_ReadMem(32 bytes @ 0xE0040FD0) - Data: 04 00 00 00 00 00 00 00 00 00 00 00 00 00 00 00 ...  returns 0x00 (0001ms, 0670ms total)
T22D00 000:756 JLINK_ReadMem (0xE0041FF0, 0x0010 Bytes, ...) -- CPU is running -- CPU_ReadMem(16 bytes @ 0xE0041FF0) - Data: 0D 00 00 00 90 00 00 00 05 00 00 00 B1 00 00 00  returns 0x00 (0001ms, 0671ms total)
T22D00 000:757 JLINK_ReadMem (0xE0041FD0, 0x0020 Bytes, ...) -- CPU is running -- CPU_ReadMem(32 bytes @ 0xE0041FD0) - Data: 04 00 00 00 00 00 00 00 00 00 00 00 00 00 00 00 ...  returns 0x00 (0001ms, 0672ms total)
T22D00 000:758 JLINK_ReadMemU32(0xE000EF40, 0x0001 Items, ...) -- CPU is running -- CPU_ReadMem(4 bytes @ 0xE000EF40) - Data: 21 00 11 10  returns 0x01 (0001ms, 0673ms total)
T22D00 000:759 JLINK_ReadMemU32(0xE000EF44, 0x0001 Items, ...) -- CPU is running -- CPU_ReadMem(4 bytes @ 0xE000EF44) - Data: 11 00 00 11  returns 0x01 (0001ms, 0674ms total)
T22D00 000:760 JLINK_ReadMemU32(0xE000ED00, 0x0001 Items, ...) -- CPU is running -- CPU_ReadMem(4 bytes @ 0xE000ED00) - Data: 41 C2 0F 41  returns 0x01 (0000ms, 0674ms total)
T22D00 000:760 JLINK_SetResetType(JLINKARM_RESET_TYPE_NORMAL)  returns JLINKARM_RESET_TYPE_NORMAL (0000ms, 0674ms total)
T22D00 000:760 JLINK_Reset() -- CPU is running -- CPU_WriteMem(4 bytes @ 0xE000EDF0) -- CPU is running -- CPU_WriteMem(4 bytes @ 0xE000EDFC) >0x35 TIF> -- CPU is running -- CPU_WriteMem(4 bytes @ 0xE000ED0C) -- CPU is running -- CPU_ReadMem(4 bytes @ 0xE000EDF0) -- CPU is running -- CPU_ReadMem(4 bytes @ 0xE000EDF0) -- CPU is running -- CPU_WriteMem(4 bytes @ 0xE000EDF0) -- CPU is running -- CPU_WriteMem(4 bytes @ 0xE000EDFC) -- CPU is running -- CPU_ReadMem(4 bytes @ 0xE000EDF0)
 -- CPU_WriteMem(4 bytes @ 0xE0002000) -- CPU_ReadMem(4 bytes @ 0xE000EDFC) -- CPU_ReadMem(4 bytes @ 0xE0001000) (0023ms, 0697ms total)
T22D00 000:783 JLINK_ReadReg(R15 (PC))  returns 0x08000234 (0000ms, 0697ms total)
T22D00 000:783 JLINK_ReadReg(XPSR)  returns 0x01000000 (0000ms, 0697ms total)
T22D00 000:783 JLINK_Halt()  returns 0x00 (0001ms, 0698ms total)
T22D00 000:784 JLINK_IsHalted()  returns TRUE (0000ms, 0698ms total)
T22D00 000:784 JLINK_ReadMemU32(0xE000EDF0, 0x0001 Items, ...) -- CPU_ReadMem(4 bytes @ 0xE000EDF0) - Data: 03 00 03 00  returns 0x01 (0000ms, 0698ms total)
T22D00 000:784 JLINK_WriteU32(0xE000EDF0, 0xA05F0003) -- CPU_WriteMem(4 bytes @ 0xE000EDF0)  returns 0x00 (0001ms, 0699ms total)
T22D00 000:785 JLINK_WriteU32(0xE000EDFC, 0x01000000) -- CPU_WriteMem(4 bytes @ 0xE000EDFC)  returns 0x00 (0001ms, 0700ms total)
T22D00 000:787 JLINK_GetHWStatus(...)  returns 0x00 (0000ms, 0700ms total)
T22D00 000:787 JLINK_GetNumBPUnits(Type = 0xFFFFFF00)  returns 0x06 (0000ms, 0700ms total)
T22D00 000:787 JLINK_GetNumBPUnits(Type = 0xF0)  returns 0x2000 (0000ms, 0700ms total)
T22D00 000:787 JLINK_GetNumWPUnits()  returns 0x04 (0000ms, 0700ms total)
T22D00 000:788 JLINK_GetSpeed()  returns 0xFA0 (0000ms, 0700ms total)
T22D00 000:791 JLINK_ReadMemU32(0xE000E004, 0x0001 Items, ...) -- CPU_ReadMem(4 bytes @ 0xE000E004) - Data: 02 00 00 00  returns 0x01 (0001ms, 0701ms total)
T22D00 000:792 JLINK_ReadMemU32(0xE000E004, 0x0001 Items, ...) -- CPU_ReadMem(4 bytes @ 0xE000E004) - Data: 02 00 00 00  returns 0x01 (0001ms, 0702ms total)
T22D00 000:793 JLINK_WriteMem(0xE0001000, 0x001C Bytes, ...) - Data: 01 00 00 00 00 00 00 00 00 00 00 00 00 00 00 00 ... -- CPU_WriteMem(28 bytes @ 0xE0001000)  returns 0x1C (0002ms, 0704ms total)
T22D00 000:795 JLINK_ReadMem (0xE0001000, 0x001C Bytes, ...) -- CPU_ReadMem(28 bytes @ 0xE0001000) - Data: 01 00 00 40 00 00 00 00 00 00 00 00 00 00 00 00 ...  returns 0x00 (0001ms, 0705ms total)
T22D00 000:796 JLINK_ReadReg(R15 (PC))  returns 0x08000234 (0000ms, 0705ms total)
T22D00 000:796 JLINK_ReadReg(XPSR)  returns 0x01000000 (0000ms, 0705ms total)
T22D00 000:937 JLINK_SetResetType(JLINKARM_RESET_TYPE_NORMAL)  returns JLINKARM_RESET_TYPE_NORMAL (0000ms, 0705ms total)
T22D00 000:937 JLINK_Reset() -- CPU_WriteMem(4 bytes @ 0xE000EDF0) -- CPU_WriteMem(4 bytes @ 0xE000EDFC) >0x35 TIF> -- CPU_WriteMem(4 bytes @ 0xE000ED0C) -- CPU_ReadMem(4 bytes @ 0xE000EDF0) -- CPU_ReadMem(4 bytes @ 0xE000EDF0) -- CPU_WriteMem(4 bytes @ 0xE000EDF0) -- CPU_WriteMem(4 bytes @ 0xE000EDFC) -- CPU is running -- CPU_ReadMem(4 bytes @ 0xE000EDF0) -- CPU_WriteMem(4 bytes @ 0xE0002000) -- CPU_ReadMem(4 bytes @ 0xE000EDFC) -- CPU_ReadMem(4 bytes @ 0xE0001000) (0021ms, 0726ms total)
T22D00 000:958 JLINK_ReadReg(R15 (PC))  returns 0x08000234 (0001ms, 0727ms total)
T22D00 000:959 JLINK_ReadReg(XPSR)  returns 0x01000000 (0000ms, 0727ms total)
T22D00 000:960 JLINK_ReadMem (0x08000234, 0x003C Bytes, ...) -- CPU_ReadMem(128 bytes @ 0x08000200) -- Updating C cache (128 bytes @ 0x08000200) -- Read from C cache (60 bytes @ 0x08000234) - Data: 09 48 80 47 09 48 00 47 FE E7 FE E7 FE E7 FE E7 ...  returns 0x00 (0002ms, 0729ms total)
T25254 003:546 JLINK_SetBPEx(Addr = 0x08004454, Type = 0xFFFFFFF2)  returns 0x00000001 (0001ms, 0730ms total)
T25254 003:547 JLINK_Go() -- CPU_WriteMem(4 bytes @ 0xE0002000) -- CPU_ReadMem(4 bytes @ 0xE0001000) -- CPU_WriteMem(4 bytes @ 0xE0002008) -- CPU_WriteMem(4 bytes @ 0xE000200C) -- CPU_WriteMem(4 bytes @ 0xE0002010) -- CPU_WriteMem(4 bytes @ 0xE0002014) -- CPU_WriteMem(4 bytes @ 0xE0002018) -- CPU_WriteMem(4 bytes @ 0xE000201C) -- CPU_WriteMem(4 bytes @ 0xE0001004) (0006ms, 0736ms total)
T25254 003:653 JLINK_IsHalted()  returns TRUE (0004ms, 0740ms total)
T25254 003:657 JLINK_Halt()  returns 0x00 (0000ms, 0736ms total)
T25254 003:657 JLINK_IsHalted()  returns TRUE (0000ms, 0736ms total)
T25254 003:657 JLINK_IsHalted()  returns TRUE (0000ms, 0736ms total)
T25254 003:657 JLINK_IsHalted()  returns TRUE (0000ms, 0736ms total)
T25254 003:657 JLINK_ReadReg(R15 (PC))  returns 0x08004454 (0000ms, 0736ms total)
T25254 003:657 JLINK_ReadReg(XPSR)  returns 0x21000000 (0001ms, 0737ms total)
T25254 003:658 JLINK_ClrBPEx(BPHandle = 0x00000001)  returns 0x00 (0000ms, 0737ms total)
T25254 003:658 JLINK_ReadMemU32(0xE000ED30, 0x0001 Items, ...) -- CPU_ReadMem(4 bytes @ 0xE000ED30) - Data: 03 00 00 00  returns 0x01 (0001ms, 0738ms total)
T25254 003:659 JLINK_ReadMemU32(0xE0001028, 0x0001 Items, ...) -- CPU_ReadMem(4 bytes @ 0xE0001028) - Data: 00 00 00 00  returns 0x01 (0000ms, 0738ms total)
T25254 003:659 JLINK_ReadMemU32(0xE0001038, 0x0001 Items, ...) -- CPU_ReadMem(4 bytes @ 0xE0001038) - Data: 00 02 00 00  returns 0x01 (0001ms, 0739ms total)
T25254 003:660 JLINK_ReadMemU32(0xE0001048, 0x0001 Items, ...) -- CPU_ReadMem(4 bytes @ 0xE0001048) - Data: 00 00 00 00  returns 0x01 (0001ms, 0740ms total)
T25254 003:661 JLINK_ReadMemU32(0xE0001058, 0x0001 Items, ...) -- CPU_ReadMem(4 bytes @ 0xE0001058) - Data: 00 00 00 00  returns 0x01 (0001ms, 0741ms total)
T25254 003:662 JLINK_ReadReg(R0)  returns 0x20000558 (0000ms, 0741ms total)
T25254 003:662 JLINK_ReadReg(R1)  returns 0x20000758 (0000ms, 0741ms total)
T25254 003:662 JLINK_ReadReg(R2)  returns 0x20000758 (0000ms, 0741ms total)
T25254 003:662 JLINK_ReadReg(R3)  returns 0x20000758 (0000ms, 0741ms total)
T25254 003:662 JLINK_ReadReg(R4)  returns 0x00000000 (0000ms, 0741ms total)
T25254 003:662 JLINK_ReadReg(R5)  returns 0x200004F8 (0001ms, 0742ms total)
T25254 003:663 JLINK_ReadReg(R6)  returns 0x00000000 (0000ms, 0742ms total)
T25254 003:663 JLINK_ReadReg(R7)  returns 0x00000000 (0000ms, 0742ms total)
T25254 003:663 JLINK_ReadReg(R8)  returns 0x00000000 (0000ms, 0742ms total)
T25254 003:663 JLINK_ReadReg(R9)  returns 0x00000000 (0000ms, 0742ms total)
T25254 003:663 JLINK_ReadReg(R10)  returns 0x08005468 (0000ms, 0742ms total)
T25254 003:663 JLINK_ReadReg(R11)  returns 0x00000000 (0000ms, 0742ms total)
T25254 003:663 JLINK_ReadReg(R12)  returns 0x20000538 (0000ms, 0742ms total)
T25254 003:663 JLINK_ReadReg(R13 (SP))  returns 0x20000B58 (0000ms, 0742ms total)
T25254 003:663 JLINK_ReadReg(R14)  returns 0x08000223 (0000ms, 0742ms total)
T25254 003:663 JLINK_ReadReg(R15 (PC))  returns 0x08004454 (0000ms, 0742ms total)
T25254 003:663 JLINK_ReadReg(XPSR)  returns 0x21000000 (0000ms, 0742ms total)
T25254 003:663 JLINK_ReadReg(MSP)  returns 0x20000B58 (0000ms, 0742ms total)
T25254 003:663 JLINK_ReadReg(PSP)  returns 0x00000000 (0000ms, 0742ms total)
T25254 003:663 JLINK_ReadReg(CFBP)  returns 0x04000000 (0000ms, 0742ms total)
T25254 003:663 JLINK_ReadReg(FPSCR)  returns 0x03000000 (0006ms, 0748ms total)
T25254 003:669 JLINK_ReadReg(FPS0)  returns 0x00000000 (0000ms, 0748ms total)
T25254 003:669 JLINK_ReadReg(FPS1)  returns 0x00000000 (0000ms, 0748ms total)
T25254 003:669 JLINK_ReadReg(FPS2)  returns 0x00000000 (0000ms, 0748ms total)
T25254 003:669 JLINK_ReadReg(FPS3)  returns 0x00000000 (0000ms, 0748ms total)
T25254 003:669 JLINK_ReadReg(FPS4)  returns 0x00000000 (0000ms, 0748ms total)
T25254 003:669 JLINK_ReadReg(FPS5)  returns 0x00000000 (0000ms, 0748ms total)
T25254 003:669 JLINK_ReadReg(FPS6)  returns 0x00000000 (0000ms, 0748ms total)
T25254 003:669 JLINK_ReadReg(FPS7)  returns 0x00000000 (0000ms, 0748ms total)
T25254 003:669 JLINK_ReadReg(FPS8)  returns 0x00000000 (0000ms, 0748ms total)
T25254 003:669 JLINK_ReadReg(FPS9)  returns 0x00000000 (0000ms, 0748ms total)
T25254 003:669 JLINK_ReadReg(FPS10)  returns 0x00000000 (0000ms, 0748ms total)
T25254 003:669 JLINK_ReadReg(FPS11)  returns 0x00000000 (0000ms, 0748ms total)
T25254 003:669 JLINK_ReadReg(FPS12)  returns 0x00000000 (0000ms, 0748ms total)
T25254 003:669 JLINK_ReadReg(FPS13)  returns 0x00000000 (0000ms, 0748ms total)
T25254 003:669 JLINK_ReadReg(FPS14)  returns 0x00000000 (0001ms, 0749ms total)
T25254 003:670 JLINK_ReadReg(FPS15)  returns 0x00000000 (0000ms, 0749ms total)
T25254 003:670 JLINK_ReadReg(FPS16)  returns 0x00000000 (0000ms, 0749ms total)
T25254 003:670 JLINK_ReadReg(FPS17)  returns 0x00000000 (0000ms, 0749ms total)
T25254 003:670 JLINK_ReadReg(FPS18)  returns 0x00000000 (0000ms, 0749ms total)
T25254 003:670 JLINK_ReadReg(FPS19)  returns 0x00000000 (0000ms, 0749ms total)
T25254 003:670 JLINK_ReadReg(FPS20)  returns 0x00000000 (0000ms, 0749ms total)
T25254 003:670 JLINK_ReadReg(FPS21)  returns 0x00000000 (0000ms, 0749ms total)
T25254 003:670 JLINK_ReadReg(FPS22)  returns 0x00000000 (0000ms, 0749ms total)
T25254 003:670 JLINK_ReadReg(FPS23)  returns 0x00000000 (0000ms, 0749ms total)
T25254 003:670 JLINK_ReadReg(FPS24)  returns 0x00000000 (0000ms, 0749ms total)
T25254 003:670 JLINK_ReadReg(FPS25)  returns 0x00000000 (0000ms, 0749ms total)
T25254 003:670 JLINK_ReadReg(FPS26)  returns 0x00000000 (0000ms, 0749ms total)
T25254 003:670 JLINK_ReadReg(FPS27)  returns 0x00000000 (0000ms, 0749ms total)
T25254 003:670 JLINK_ReadReg(FPS28)  returns 0x00000000 (0000ms, 0749ms total)
T25254 003:670 JLINK_ReadReg(FPS29)  returns 0x00000000 (0000ms, 0749ms total)
T25254 003:670 JLINK_ReadReg(FPS30)  returns 0x00000000 (0000ms, 0749ms total)
T25254 003:670 JLINK_ReadReg(FPS31)  returns 0x00000000 (0000ms, 0749ms total)
T22D00 003:684 JLINK_ReadMem (0x20000B30, 0x0001 Bytes, ...) -- CPU_ReadMem(64 bytes @ 0x20000B00) -- Updating C cache (64 bytes @ 0x20000B00) -- Read from C cache (1 bytes @ 0x20000B30) - Data: 00  returns 0x00 (0001ms, 0750ms total)
T22D00 003:685 JLINK_ReadMem (0x20000B4C, 0x0004 Bytes, ...) -- CPU_ReadMem(64 bytes @ 0x20000B40) -- Updating C cache (64 bytes @ 0x20000B40) -- Read from C cache (4 bytes @ 0x20000B4C) - Data: 58 07 00 20  returns 0x00 (0002ms, 0752ms total)
T22D00 003:687 JLINK_ReadMem (0x20000B50, 0x0004 Bytes, ...) -- Read from C cache (4 bytes @ 0x20000B50) - Data: 00 00 00 00  returns 0x00 (0000ms, 0752ms total)
T22D00 003:688 JLINK_ReadMemU32(0xE0001004, 0x0001 Items, ...) -- CPU_ReadMem(4 bytes @ 0xE0001004) - Data: C2 06 00 00  returns 0x01 (0001ms, 0753ms total)
T25254 006:149 JLINK_Go() -- CPU_ReadMem(4 bytes @ 0xE0001000) -- CPU_WriteMem(4 bytes @ 0xE0002008) (0007ms, 0760ms total)
T25254 006:256 JLINK_IsHalted()  returns FALSE (0001ms, 0761ms total)
T25254 006:357 JLINK_IsHalted()  returns FALSE (0000ms, 0760ms total)
T25254 006:457 JLINK_IsHalted()  returns FALSE (0001ms, 0761ms total)
T25254 006:558 JLINK_IsHalted()  returns FALSE (0000ms, 0760ms total)
T25254 006:658 JLINK_IsHalted()  returns FALSE (0001ms, 0761ms total)
T25254 006:759 JLINK_IsHalted()  returns FALSE (0001ms, 0761ms total)
T25254 006:860 JLINK_IsHalted()  returns FALSE (0000ms, 0760ms total)
T25254 006:960 JLINK_IsHalted()  returns FALSE (0001ms, 0761ms total)
T25254 007:061 JLINK_IsHalted()  returns FALSE (0000ms, 0760ms total)
T25254 007:161 JLINK_IsHalted()  returns FALSE (0001ms, 0761ms total)
T25254 007:263 JLINK_IsHalted()  returns FALSE (0000ms, 0760ms total)
T25254 007:363 JLINK_IsHalted()  returns FALSE (0001ms, 0761ms total)
T25254 007:464 JLINK_IsHalted()  returns FALSE (0001ms, 0761ms total)
T25254 007:565 JLINK_IsHalted()  returns FALSE (0000ms, 0760ms total)
T25254 007:665 JLINK_IsHalted()  returns FALSE (0002ms, 0762ms total)
T22D00 007:683 JLINK_ReadMem (0x20000124, 0x0004 Bytes, ...) -- CPU is running -- CPU_ReadMem(4 bytes @ 0x20000124) - Data: 00 00 00 00  returns 0x00 (0001ms, 0761ms total)
T22D00 007:686 JLINK_ReadMem (0x20000128, 0x0004 Bytes, ...) -- CPU is running -- CPU_ReadMem(4 bytes @ 0x20000128) - Data: 00 00 00 00  returns 0x00 (0001ms, 0762ms total)
T22D00 007:687 JLINK_ReadMem (0x2000012C, 0x0004 Bytes, ...) -- CPU is running -- CPU_ReadMem(4 bytes @ 0x2000012C) - Data: 00 00 00 00  returns 0x00 (0001ms, 0763ms total)
T22D00 007:688 JLINK_ReadMem (0x20000124, 0x0004 Bytes, ...) -- CPU is running -- CPU_ReadMem(4 bytes @ 0x20000124) - Data: 00 00 00 00  returns 0x00 (0001ms, 0764ms total)
T22D00 007:689 JLINK_ReadMem (0x20000128, 0x0004 Bytes, ...) -- CPU is running -- CPU_ReadMem(4 bytes @ 0x20000128) - Data: 00 00 00 00  returns 0x00 (0001ms, 0765ms total)
T22D00 007:690 JLINK_ReadMem (0x2000012C, 0x0004 Bytes, ...) -- CPU is running -- CPU_ReadMem(4 bytes @ 0x2000012C) - Data: 00 00 00 00  returns 0x00 (0001ms, 0766ms total)
T22D00 007:698 JLINK_ReadMem (0x20000124, 0x0004 Bytes, ...) -- CPU is running -- CPU_ReadMem(4 bytes @ 0x20000124) - Data: 00 00 00 00  returns 0x00 (0001ms, 0767ms total)
T22D00 007:699 JLINK_ReadMem (0x20000128, 0x0004 Bytes, ...) -- CPU is running -- CPU_ReadMem(4 bytes @ 0x20000128) - Data: 00 00 00 00  returns 0x00 (0001ms, 0768ms total)
T22D00 007:700 JLINK_ReadMem (0x2000012C, 0x0004 Bytes, ...) -- CPU is running -- CPU_ReadMem(4 bytes @ 0x2000012C) - Data: 00 00 00 00  returns 0x00 (0001ms, 0769ms total)
T25254 007:767 JLINK_IsHalted()  returns FALSE (0001ms, 0770ms total)
T25254 007:868 JLINK_IsHalted()  returns FALSE (0001ms, 0770ms total)
T25254 007:969 JLINK_IsHalted()  returns FALSE (0001ms, 0770ms total)
T25254 008:070 JLINK_IsHalted()  returns FALSE (0002ms, 0771ms total)
T25254 008:172 JLINK_IsHalted()  returns FALSE (0001ms, 0770ms total)
T25254 008:273 JLINK_IsHalted()  returns FALSE (0001ms, 0770ms total)
T25254 008:374 JLINK_IsHalted()  returns FALSE (0000ms, 0769ms total)
T25254 008:475 JLINK_IsHalted()  returns FALSE (0000ms, 0769ms total)
T25254 008:575 JLINK_IsHalted()  returns FALSE (0001ms, 0770ms total)
T25254 008:676 JLINK_IsHalted()  returns FALSE (0000ms, 0769ms total)
T25254 008:776 JLINK_IsHalted()  returns FALSE (0013ms, 0782ms total)
T25254 008:889 JLINK_IsHalted()  returns FALSE (0000ms, 0769ms total)
T25254 008:989 JLINK_IsHalted()  returns FALSE (0001ms, 0770ms total)
T25254 009:090 JLINK_IsHalted()  returns FALSE (0001ms, 0770ms total)
T25254 009:191 JLINK_IsHalted()  returns FALSE (0001ms, 0770ms total)
T25254 009:292 JLINK_IsHalted()  returns FALSE (0000ms, 0769ms total)
T25254 009:392 JLINK_IsHalted()  returns FALSE (0001ms, 0770ms total)
T25254 009:493 JLINK_IsHalted()  returns FALSE (0000ms, 0769ms total)
T25254 009:593 JLINK_IsHalted()  returns FALSE (0007ms, 0776ms total)
T25254 009:701 JLINK_IsHalted()  returns FALSE (0001ms, 0770ms total)
T25254 009:802 JLINK_IsHalted()  returns FALSE (0001ms, 0770ms total)
T25254 009:903 JLINK_IsHalted()  returns FALSE (0001ms, 0770ms total)
T25254 010:004 JLINK_IsHalted()  returns FALSE (0000ms, 0769ms total)
T25254 010:104 JLINK_IsHalted()  returns FALSE (0001ms, 0770ms total)
T25254 010:205 JLINK_IsHalted()  returns FALSE (0001ms, 0770ms total)
T25254 010:308 JLINK_IsHalted()  returns FALSE (0001ms, 0770ms total)
T25254 010:409 JLINK_IsHalted()  returns FALSE (0000ms, 0769ms total)
T25254 010:510 JLINK_IsHalted()  returns FALSE (0000ms, 0769ms total)
T25254 010:610 JLINK_IsHalted()  returns FALSE (0001ms, 0770ms total)
T25254 010:711 JLINK_IsHalted()  returns FALSE (0000ms, 0769ms total)
T25254 010:811 JLINK_IsHalted()  returns FALSE (0001ms, 0770ms total)
T25254 010:917 JLINK_IsHalted()  returns FALSE (0008ms, 0777ms total)
T25254 011:025 JLINK_IsHalted()  returns FALSE (0001ms, 0770ms total)
T25254 011:126 JLINK_IsHalted()  returns FALSE (0001ms, 0770ms total)
T25254 011:228 JLINK_IsHalted()  returns FALSE (0001ms, 0770ms total)
T25254 011:329 JLINK_IsHalted()  returns FALSE (0001ms, 0770ms total)
T25254 011:430 JLINK_IsHalted()  returns FALSE (0001ms, 0770ms total)
T25254 011:531 JLINK_IsHalted()  returns FALSE (0001ms, 0770ms total)
T25254 011:632 JLINK_IsHalted()  returns FALSE (0000ms, 0769ms total)
T25254 011:732 JLINK_IsHalted()  returns FALSE (0001ms, 0770ms total)
T25254 011:833 JLINK_IsHalted()  returns FALSE (0001ms, 0770ms total)
T25254 011:934 JLINK_IsHalted()  returns FALSE (0000ms, 0769ms total)
T25254 012:034 JLINK_IsHalted()  returns FALSE (0001ms, 0770ms total)
T25254 012:135 JLINK_IsHalted()  returns FALSE (0000ms, 0769ms total)
T25254 012:235 JLINK_IsHalted()  returns FALSE (0001ms, 0770ms total)
T25254 012:336 JLINK_IsHalted()  returns FALSE (0001ms, 0770ms total)
T25254 012:437 JLINK_IsHalted()  returns FALSE (0001ms, 0770ms total)
T25254 012:538 JLINK_IsHalted()  returns FALSE (0000ms, 0769ms total)
T25254 012:638 JLINK_IsHalted()  returns FALSE (0001ms, 0770ms total)
T22D00 012:652 JLINK_ReadMem (0x20000058, 0x0004 Bytes, ...) -- CPU is running -- CPU_ReadMem(4 bytes @ 0x20000058) - Data: B9 3D 00 08  returns 0x00 (0001ms, 0770ms total)
T22D00 012:653 JLINK_ReadMem (0x2000005C, 0x0004 Bytes, ...) -- CPU is running -- CPU_ReadMem(4 bytes @ 0x2000005C) - Data: 99 3A 00 08  returns 0x00 (0001ms, 0771ms total)
T22D00 012:654 JLINK_ReadMem (0x20000060, 0x0004 Bytes, ...) -- CPU is running -- CPU_ReadMem(4 bytes @ 0x20000060) - Data: 2D 3E 00 08  returns 0x00 (0001ms, 0772ms total)
T22D00 012:655 JLINK_ReadMem (0x20000064, 0x0004 Bytes, ...) -- CPU is running -- CPU_ReadMem(4 bytes @ 0x20000064) - Data: 4D 3E 00 08  returns 0x00 (0001ms, 0773ms total)
T22D00 012:656 JLINK_ReadMem (0x20000068, 0x0004 Bytes, ...) -- CPU is running -- CPU_ReadMem(4 bytes @ 0x20000068) - Data: D1 3A 00 08  returns 0x00 (0001ms, 0774ms total)
T22D00 012:657 JLINK_ReadMem (0x2000006C, 0x0004 Bytes, ...) -- CPU is running -- CPU_ReadMem(4 bytes @ 0x2000006C) - Data: 61 3C 00 08  returns 0x00 (0000ms, 0774ms total)
T25254 012:739 JLINK_IsHalted()  returns FALSE (0001ms, 0775ms total)
T25254 012:841 JLINK_IsHalted()  returns FALSE (0001ms, 0775ms total)
T25254 012:942 JLINK_IsHalted()  returns FALSE (0005ms, 0779ms total)
T25254 013:047 JLINK_IsHalted()  returns FALSE (0001ms, 0775ms total)
T25254 013:148 JLINK_IsHalted()  returns FALSE (0000ms, 0774ms total)
T25254 013:249 JLINK_IsHalted()  returns FALSE (0002ms, 0776ms total)
T25254 013:351 JLINK_IsHalted()  returns FALSE (0001ms, 0775ms total)
T25254 013:452 JLINK_IsHalted()  returns FALSE (0000ms, 0774ms total)
T25254 013:552 JLINK_IsHalted()  returns FALSE (0001ms, 0775ms total)
T25254 013:653 JLINK_IsHalted()  returns FALSE (0001ms, 0775ms total)
T22D00 013:713 JLINK_SetBPEx(Addr = 0x08004520, Type = 0xFFFFFFF2) -- CPU is running -- CPU is running -- CPU_WriteMem(4 bytes @ 0xE0002000) -- CPU is running -- CPU_WriteMem(4 bytes @ 0xE0002008)  returns 0x00000002 (0002ms, 0776ms total)
T22D00 013:716 JLINK_SetBPEx(Addr = 0x0800453C, Type = 0xFFFFFFF2) -- CPU is running -- CPU is running -- CPU_WriteMem(4 bytes @ 0xE0002000) -- CPU is running -- CPU_WriteMem(4 bytes @ 0xE000200C)  returns 0x00000003 (0001ms, 0777ms total)
T25254 013:754 JLINK_IsHalted()  returns FALSE (0000ms, 0777ms total)
T25254 013:855 JLINK_IsHalted()  returns FALSE (0001ms, 0778ms total)
T25254 013:956 JLINK_IsHalted()  returns FALSE (0001ms, 0778ms total)
T25254 014:057 JLINK_IsHalted()  returns FALSE (0001ms, 0778ms total)
T25254 014:158 JLINK_IsHalted()  returns FALSE (0000ms, 0777ms total)
T25254 014:259 JLINK_IsHalted()  returns FALSE (0001ms, 0778ms total)
T25254 014:360 JLINK_IsHalted()  returns FALSE (0001ms, 0778ms total)
T25254 014:461 JLINK_IsHalted()  returns TRUE (0003ms, 0780ms total)
T25254 014:464 JLINK_Halt()  returns 0x00 (0000ms, 0777ms total)
T25254 014:465 JLINK_IsHalted()  returns TRUE (0000ms, 0777ms total)
T25254 014:465 JLINK_IsHalted()  returns TRUE (0000ms, 0777ms total)
T25254 014:465 JLINK_IsHalted()  returns TRUE (0000ms, 0777ms total)
T25254 014:465 JLINK_ReadReg(R15 (PC))  returns 0x0800453C (0000ms, 0777ms total)
T25254 014:465 JLINK_ReadReg(XPSR)  returns 0x61000000 (0000ms, 0777ms total)
T25254 014:465 JLINK_ClrBPEx(BPHandle = 0x00000002)  returns 0x00 (0000ms, 0777ms total)
T25254 014:465 JLINK_ClrBPEx(BPHandle = 0x00000003)  returns 0x00 (0000ms, 0777ms total)
T25254 014:465 JLINK_ReadMemU32(0xE000ED30, 0x0001 Items, ...) -- CPU_ReadMem(4 bytes @ 0xE000ED30) - Data: 03 00 00 00  returns 0x01 (0001ms, 0778ms total)
T25254 014:466 JLINK_ReadMemU32(0xE0001028, 0x0001 Items, ...) -- CPU_ReadMem(4 bytes @ 0xE0001028) - Data: 00 00 00 00  returns 0x01 (0000ms, 0778ms total)
T25254 014:466 JLINK_ReadMemU32(0xE0001038, 0x0001 Items, ...) -- CPU_ReadMem(4 bytes @ 0xE0001038) - Data: 00 02 00 00  returns 0x01 (0001ms, 0779ms total)
T25254 014:467 JLINK_ReadMemU32(0xE0001048, 0x0001 Items, ...) -- CPU_ReadMem(4 bytes @ 0xE0001048) - Data: 00 00 00 00  returns 0x01 (0001ms, 0780ms total)
T25254 014:468 JLINK_ReadMemU32(0xE0001058, 0x0001 Items, ...) -- CPU_ReadMem(4 bytes @ 0xE0001058) - Data: 00 00 00 00  returns 0x01 (0001ms, 0781ms total)
T25254 014:469 JLINK_ReadReg(R0)  returns 0x00000000 (0000ms, 0781ms total)
T25254 014:469 JLINK_ReadReg(R1)  returns 0x3D79DB23 (0000ms, 0781ms total)
T25254 014:469 JLINK_ReadReg(R2)  returns 0x008A0057 (0000ms, 0781ms total)
T25254 014:469 JLINK_ReadReg(R3)  returns 0x00004153 (0000ms, 0781ms total)
T25254 014:469 JLINK_ReadReg(R4)  returns 0x20000058 (0000ms, 0781ms total)
T25254 014:469 JLINK_ReadReg(R5)  returns 0x20000070 (0000ms, 0781ms total)
T25254 014:469 JLINK_ReadReg(R6)  returns 0x000003E8 (0000ms, 0781ms total)
T25254 014:469 JLINK_ReadReg(R7)  returns 0x00000000 (0000ms, 0781ms total)
T25254 014:469 JLINK_ReadReg(R8)  returns 0x00000000 (0000ms, 0781ms total)
T25254 014:469 JLINK_ReadReg(R9)  returns 0x00000000 (0000ms, 0781ms total)
T25254 014:469 JLINK_ReadReg(R10)  returns 0x08005468 (0000ms, 0781ms total)
T25254 014:469 JLINK_ReadReg(R11)  returns 0x00000000 (0000ms, 0781ms total)
T25254 014:469 JLINK_ReadReg(R12)  returns 0x47AE1480 (0000ms, 0781ms total)
T25254 014:469 JLINK_ReadReg(R13 (SP))  returns 0x20000B30 (0000ms, 0781ms total)
T25254 014:469 JLINK_ReadReg(R14)  returns 0x08003F47 (0000ms, 0781ms total)
T25254 014:469 JLINK_ReadReg(R15 (PC))  returns 0x0800453C (0000ms, 0781ms total)
T25254 014:469 JLINK_ReadReg(XPSR)  returns 0x61000000 (0000ms, 0781ms total)
T25254 014:469 JLINK_ReadReg(MSP)  returns 0x20000B30 (0000ms, 0781ms total)
T25254 014:469 JLINK_ReadReg(PSP)  returns 0x00000000 (0000ms, 0781ms total)
T25254 014:469 JLINK_ReadReg(CFBP)  returns 0x04000000 (0000ms, 0781ms total)
T25254 014:469 JLINK_ReadReg(FPSCR)  returns 0x23000010 (0005ms, 0786ms total)
T25254 014:475 JLINK_ReadReg(FPS0)  returns 0x000003FC (0000ms, 0787ms total)
T25254 014:475 JLINK_ReadReg(FPS1)  returns 0x4682A600 (0000ms, 0787ms total)
T25254 014:475 JLINK_ReadReg(FPS2)  returns 0x00000000 (0000ms, 0787ms total)
T25254 014:475 JLINK_ReadReg(FPS3)  returns 0x40000000 (0000ms, 0787ms total)
T25254 014:475 JLINK_ReadReg(FPS4)  returns 0x00000000 (0000ms, 0787ms total)
T25254 014:475 JLINK_ReadReg(FPS5)  returns 0x00000000 (0000ms, 0787ms total)
T25254 014:475 JLINK_ReadReg(FPS6)  returns 0x00000000 (0000ms, 0787ms total)
T25254 014:475 JLINK_ReadReg(FPS7)  returns 0x00000000 (0000ms, 0787ms total)
T25254 014:475 JLINK_ReadReg(FPS8)  returns 0x00000000 (0000ms, 0787ms total)
T25254 014:475 JLINK_ReadReg(FPS9)  returns 0x00000000 (0000ms, 0787ms total)
T25254 014:475 JLINK_ReadReg(FPS10)  returns 0x00000000 (0000ms, 0787ms total)
T25254 014:475 JLINK_ReadReg(FPS11)  returns 0x00000000 (0000ms, 0787ms total)
T25254 014:475 JLINK_ReadReg(FPS12)  returns 0x00000000 (0000ms, 0787ms total)
T25254 014:475 JLINK_ReadReg(FPS13)  returns 0x00000000 (0000ms, 0787ms total)
T25254 014:475 JLINK_ReadReg(FPS14)  returns 0x00000000 (0000ms, 0787ms total)
T25254 014:475 JLINK_ReadReg(FPS15)  returns 0x00000000 (0000ms, 0787ms total)
T25254 014:475 JLINK_ReadReg(FPS16)  returns 0x00000000 (0000ms, 0787ms total)
T25254 014:475 JLINK_ReadReg(FPS17)  returns 0x00000000 (0000ms, 0787ms total)
T25254 014:475 JLINK_ReadReg(FPS18)  returns 0x00000000 (0000ms, 0787ms total)
T25254 014:475 JLINK_ReadReg(FPS19)  returns 0x00000000 (0000ms, 0787ms total)
T25254 014:475 JLINK_ReadReg(FPS20)  returns 0x00000000 (0000ms, 0787ms total)
T25254 014:475 JLINK_ReadReg(FPS21)  returns 0x00000000 (0000ms, 0787ms total)
T25254 014:475 JLINK_ReadReg(FPS22)  returns 0x00000000 (0001ms, 0788ms total)
T25254 014:476 JLINK_ReadReg(FPS23)  returns 0x00000000 (0000ms, 0788ms total)
T25254 014:476 JLINK_ReadReg(FPS24)  returns 0x00000000 (0000ms, 0788ms total)
T25254 014:476 JLINK_ReadReg(FPS25)  returns 0x00000000 (0000ms, 0788ms total)
T25254 014:476 JLINK_ReadReg(FPS26)  returns 0x00000000 (0000ms, 0788ms total)
T25254 014:476 JLINK_ReadReg(FPS27)  returns 0x00000000 (0000ms, 0788ms total)
T25254 014:476 JLINK_ReadReg(FPS28)  returns 0x00000000 (0000ms, 0788ms total)
T25254 014:476 JLINK_ReadReg(FPS29)  returns 0x00000000 (0000ms, 0788ms total)
T25254 014:476 JLINK_ReadReg(FPS30)  returns 0x00000000 (0000ms, 0788ms total)
T25254 014:476 JLINK_ReadReg(FPS31)  returns 0x00000000 (0000ms, 0788ms total)
T22D00 014:476 JLINK_ReadMem (0x20000B30, 0x0001 Bytes, ...) -- CPU_ReadMem(64 bytes @ 0x20000B00) -- Updating C cache (64 bytes @ 0x20000B00) -- Read from C cache (1 bytes @ 0x20000B30) - Data: BC  returns 0x00 (0002ms, 0790ms total)
T22D00 014:478 JLINK_ReadMem (0x20000B4C, 0x0004 Bytes, ...) -- CPU_ReadMem(64 bytes @ 0x20000B40) -- Updating C cache (64 bytes @ 0x20000B40) -- Read from C cache (4 bytes @ 0x20000B4C) - Data: 85 6B 97 42  returns 0x00 (0001ms, 0791ms total)
T22D00 014:479 JLINK_ReadMem (0x20000B50, 0x0004 Bytes, ...) -- Read from C cache (4 bytes @ 0x20000B50) - Data: 71 3D D4 41  returns 0x00 (0000ms, 0791ms total)
T22D00 014:479 JLINK_ReadMemU32(0xE0001004, 0x0001 Items, ...) -- CPU_ReadMem(4 bytes @ 0xE0001004) - Data: CD F6 19 29  returns 0x01 (0001ms, 0792ms total)
T22D00 014:480 JLINK_ReadMem (0x20000124, 0x0004 Bytes, ...) -- CPU_ReadMem(64 bytes @ 0x20000100) -- Updating C cache (64 bytes @ 0x20000100) -- Read from C cache (4 bytes @ 0x20000124) - Data: 05 00 00 00  returns 0x00 (0002ms, 0794ms total)
T22D00 014:482 JLINK_ReadMem (0x20000128, 0x0004 Bytes, ...) -- Read from C cache (4 bytes @ 0x20000128) - Data: 08 00 00 00  returns 0x00 (0000ms, 0794ms total)
T22D00 014:483 JLINK_ReadMem (0x2000012C, 0x0004 Bytes, ...) -- Read from C cache (4 bytes @ 0x2000012C) - Data: FC 03 00 00  returns 0x00 (0000ms, 0794ms total)
T22D00 014:486 JLINK_ReadMem (0x0800453C, 0x003C Bytes, ...) -- CPU_ReadMem(128 bytes @ 0x08004500) -- Updating C cache (128 bytes @ 0x08004500) -- Read from C cache (60 bytes @ 0x0800453C) - Data: 30 46 FB F7 1D FF EF E7 00 00 FA 44 00 00 48 43 ...  returns 0x00 (0002ms, 0796ms total)
T22D00 015:633 JLINK_ReadMem (0x08004520, 0x003C Bytes, ...) -- Read from C cache (60 bytes @ 0x08004520) - Data: 4F F4 7A 76 00 20 FB F7 1B FF 21 69 07 A8 88 47 ...  returns 0x00 (0001ms, 0797ms total)
T25254 017:815 JLINK_Step() -- Read from C cache (2 bytes @ 0x0800453C) -- Simulated  returns 0x00 (0002ms, 0799ms total)
T25254 017:817 JLINK_ReadReg(R15 (PC))  returns 0x0800453E (0000ms, 0799ms total)
T25254 017:817 JLINK_ReadReg(XPSR)  returns 0x61000000 (0000ms, 0799ms total)
T25254 017:817 JLINK_SetBPEx(Addr = 0x08004520, Type = 0xFFFFFFF2)  returns 0x00000004 (0000ms, 0799ms total)
T25254 017:817 JLINK_SetBPEx(Addr = 0x0800453C, Type = 0xFFFFFFF2)  returns 0x00000005 (0000ms, 0799ms total)
T25254 017:817 JLINK_Go() -- CPU_WriteMem(4 bytes @ 0xE0002000) -- CPU_WriteMem(4 bytes @ 0xE0002000) -- CPU_ReadMem(4 bytes @ 0xE0001000) -- CPU_WriteMem(4 bytes @ 0xE0001004) (0007ms, 0806ms total)
T25254 017:924 JLINK_IsHalted()  returns FALSE (0002ms, 0808ms total)
T25254 018:026 JLINK_IsHalted()  returns FALSE (0000ms, 0806ms total)
T25254 018:153 JLINK_IsHalted()  returns FALSE (0003ms, 0809ms total)
T25254 018:256 JLINK_IsHalted()  returns FALSE (0000ms, 0806ms total)
T25254 018:356 JLINK_IsHalted()  returns FALSE (0001ms, 0807ms total)
T25254 018:457 JLINK_IsHalted()  returns FALSE (0000ms, 0806ms total)
T25254 018:557 JLINK_IsHalted()  returns FALSE (0001ms, 0807ms total)
T25254 018:658 JLINK_IsHalted()  returns FALSE (0001ms, 0807ms total)
T25254 018:759 JLINK_IsHalted()  returns FALSE (0001ms, 0807ms total)
T25254 018:860 JLINK_IsHalted()  returns TRUE (0004ms, 0810ms total)
T25254 018:864 JLINK_Halt()  returns 0x00 (0000ms, 0806ms total)
T25254 018:864 JLINK_IsHalted()  returns TRUE (0000ms, 0806ms total)
T25254 018:864 JLINK_IsHalted()  returns TRUE (0000ms, 0806ms total)
T25254 018:864 JLINK_IsHalted()  returns TRUE (0000ms, 0806ms total)
T25254 018:864 JLINK_ReadReg(R15 (PC))  returns 0x0800453C (0000ms, 0806ms total)
T25254 018:864 JLINK_ReadReg(XPSR)  returns 0x61000000 (0000ms, 0806ms total)
T25254 018:864 JLINK_ClrBPEx(BPHandle = 0x00000004)  returns 0x00 (0000ms, 0806ms total)
T25254 018:864 JLINK_ClrBPEx(BPHandle = 0x00000005)  returns 0x00 (0000ms, 0806ms total)
T25254 018:864 JLINK_ReadMemU32(0xE000ED30, 0x0001 Items, ...) -- CPU_ReadMem(4 bytes @ 0xE000ED30) - Data: 03 00 00 00  returns 0x01 (0001ms, 0807ms total)
T25254 018:865 JLINK_ReadMemU32(0xE0001028, 0x0001 Items, ...) -- CPU_ReadMem(4 bytes @ 0xE0001028) - Data: 00 00 00 00  returns 0x01 (0001ms, 0808ms total)
T25254 018:866 JLINK_ReadMemU32(0xE0001038, 0x0001 Items, ...) -- CPU_ReadMem(4 bytes @ 0xE0001038) - Data: 00 02 00 00  returns 0x01 (0001ms, 0809ms total)
T25254 018:867 JLINK_ReadMemU32(0xE0001048, 0x0001 Items, ...) -- CPU_ReadMem(4 bytes @ 0xE0001048) - Data: 00 00 00 00  returns 0x01 (0000ms, 0809ms total)
T25254 018:867 JLINK_ReadMemU32(0xE0001058, 0x0001 Items, ...) -- CPU_ReadMem(4 bytes @ 0xE0001058) - Data: 00 00 00 00  returns 0x01 (0001ms, 0810ms total)
T25254 018:868 JLINK_ReadReg(R0)  returns 0x00000000 (0000ms, 0810ms total)
T25254 018:868 JLINK_ReadReg(R1)  returns 0x3D79DB23 (0000ms, 0810ms total)
T25254 018:868 JLINK_ReadReg(R2)  returns 0x008500AF (0001ms, 0811ms total)
T25254 018:869 JLINK_ReadReg(R3)  returns 0x0000415E (0000ms, 0811ms total)
T25254 018:869 JLINK_ReadReg(R4)  returns 0x20000058 (0000ms, 0811ms total)
T25254 018:869 JLINK_ReadReg(R5)  returns 0x20000070 (0000ms, 0811ms total)
T25254 018:869 JLINK_ReadReg(R6)  returns 0x000003E8 (0000ms, 0811ms total)
T25254 018:869 JLINK_ReadReg(R7)  returns 0x00000000 (0000ms, 0811ms total)
T25254 018:869 JLINK_ReadReg(R8)  returns 0x00000000 (0000ms, 0811ms total)
T25254 018:869 JLINK_ReadReg(R9)  returns 0x00000000 (0000ms, 0811ms total)
T25254 018:869 JLINK_ReadReg(R10)  returns 0x08005468 (0000ms, 0811ms total)
T25254 018:869 JLINK_ReadReg(R11)  returns 0x00000000 (0000ms, 0811ms total)
T25254 018:869 JLINK_ReadReg(R12)  returns 0xC28F5C30 (0000ms, 0811ms total)
T25254 018:869 JLINK_ReadReg(R13 (SP))  returns 0x20000B30 (0000ms, 0811ms total)
T25254 018:869 JLINK_ReadReg(R14)  returns 0x08003F47 (0000ms, 0811ms total)
T25254 018:869 JLINK_ReadReg(R15 (PC))  returns 0x0800453C (0000ms, 0811ms total)
T25254 018:869 JLINK_ReadReg(XPSR)  returns 0x61000000 (0000ms, 0811ms total)
T25254 018:869 JLINK_ReadReg(MSP)  returns 0x20000B30 (0000ms, 0811ms total)
T25254 018:869 JLINK_ReadReg(PSP)  returns 0x00000000 (0000ms, 0811ms total)
T25254 018:869 JLINK_ReadReg(CFBP)  returns 0x04000000 (0000ms, 0811ms total)
T25254 018:869 JLINK_ReadReg(FPSCR)  returns 0x23000010 (0007ms, 0818ms total)
T25254 018:876 JLINK_ReadReg(FPS0)  returns 0x000003FC (0000ms, 0818ms total)
T25254 018:876 JLINK_ReadReg(FPS1)  returns 0x4682BC00 (0000ms, 0818ms total)
T25254 018:876 JLINK_ReadReg(FPS2)  returns 0x00000000 (0000ms, 0818ms total)
T25254 018:876 JLINK_ReadReg(FPS3)  returns 0x40000000 (0000ms, 0818ms total)
T25254 018:876 JLINK_ReadReg(FPS4)  returns 0x00000000 (0000ms, 0818ms total)
T25254 018:876 JLINK_ReadReg(FPS5)  returns 0x00000000 (0000ms, 0818ms total)
T25254 018:876 JLINK_ReadReg(FPS6)  returns 0x00000000 (0000ms, 0818ms total)
T25254 018:876 JLINK_ReadReg(FPS7)  returns 0x00000000 (0000ms, 0818ms total)
T25254 018:876 JLINK_ReadReg(FPS8)  returns 0x00000000 (0000ms, 0818ms total)
T25254 018:876 JLINK_ReadReg(FPS9)  returns 0x00000000 (0000ms, 0818ms total)
T25254 018:876 JLINK_ReadReg(FPS10)  returns 0x00000000 (0000ms, 0818ms total)
T25254 018:876 JLINK_ReadReg(FPS11)  returns 0x00000000 (0000ms, 0818ms total)
T25254 018:876 JLINK_ReadReg(FPS12)  returns 0x00000000 (0000ms, 0818ms total)
T25254 018:876 JLINK_ReadReg(FPS13)  returns 0x00000000 (0000ms, 0818ms total)
T25254 018:876 JLINK_ReadReg(FPS14)  returns 0x00000000 (0000ms, 0818ms total)
T25254 018:876 JLINK_ReadReg(FPS15)  returns 0x00000000 (0000ms, 0818ms total)
T25254 018:876 JLINK_ReadReg(FPS16)  returns 0x00000000 (0001ms, 0819ms total)
T25254 018:877 JLINK_ReadReg(FPS17)  returns 0x00000000 (0000ms, 0819ms total)
T25254 018:877 JLINK_ReadReg(FPS18)  returns 0x00000000 (0000ms, 0819ms total)
T25254 018:877 JLINK_ReadReg(FPS19)  returns 0x00000000 (0000ms, 0819ms total)
T25254 018:877 JLINK_ReadReg(FPS20)  returns 0x00000000 (0000ms, 0819ms total)
T25254 018:877 JLINK_ReadReg(FPS21)  returns 0x00000000 (0000ms, 0819ms total)
T25254 018:877 JLINK_ReadReg(FPS22)  returns 0x00000000 (0000ms, 0819ms total)
T25254 018:877 JLINK_ReadReg(FPS23)  returns 0x00000000 (0000ms, 0819ms total)
T25254 018:877 JLINK_ReadReg(FPS24)  returns 0x00000000 (0000ms, 0819ms total)
T25254 018:877 JLINK_ReadReg(FPS25)  returns 0x00000000 (0000ms, 0819ms total)
T25254 018:877 JLINK_ReadReg(FPS26)  returns 0x00000000 (0000ms, 0819ms total)
T25254 018:877 JLINK_ReadReg(FPS27)  returns 0x00000000 (0000ms, 0819ms total)
T25254 018:877 JLINK_ReadReg(FPS28)  returns 0x00000000 (0000ms, 0819ms total)
T25254 018:877 JLINK_ReadReg(FPS29)  returns 0x00000000 (0000ms, 0819ms total)
T25254 018:877 JLINK_ReadReg(FPS30)  returns 0x00000000 (0000ms, 0819ms total)
T25254 018:877 JLINK_ReadReg(FPS31)  returns 0x00000000 (0000ms, 0819ms total)
T22D00 018:879 JLINK_ReadMem (0x20000B30, 0x0001 Bytes, ...) -- CPU_ReadMem(64 bytes @ 0x20000B00) -- Updating C cache (64 bytes @ 0x20000B00) -- Read from C cache (1 bytes @ 0x20000B30) - Data: BC  returns 0x00 (0001ms, 0820ms total)
T22D00 018:880 JLINK_ReadMem (0x20000B4C, 0x0004 Bytes, ...) -- CPU_ReadMem(64 bytes @ 0x20000B40) -- Updating C cache (64 bytes @ 0x20000B40) -- Read from C cache (4 bytes @ 0x20000B4C) - Data: 48 61 97 42  returns 0x00 (0002ms, 0822ms total)
T22D00 018:882 JLINK_ReadMem (0x20000B50, 0x0004 Bytes, ...) -- Read from C cache (4 bytes @ 0x20000B50) - Data: 7B 14 D4 41  returns 0x00 (0000ms, 0822ms total)
T22D00 018:882 JLINK_ReadMemU32(0xE0001004, 0x0001 Items, ...) -- CPU_ReadMem(4 bytes @ 0xE0001004) - Data: F2 FB 1C 2E  returns 0x01 (0001ms, 0823ms total)
T22D00 018:883 JLINK_ReadMem (0x20000124, 0x0004 Bytes, ...) -- CPU_ReadMem(64 bytes @ 0x20000100) -- Updating C cache (64 bytes @ 0x20000100) -- Read from C cache (4 bytes @ 0x20000124) - Data: 0A 00 00 00  returns 0x00 (0002ms, 0825ms total)
T22D00 018:887 JLINK_ReadMem (0x20000128, 0x0004 Bytes, ...) -- Read from C cache (4 bytes @ 0x20000128) - Data: 08 00 00 00  returns 0x00 (0000ms, 0825ms total)
T22D00 018:888 JLINK_ReadMem (0x2000012C, 0x0004 Bytes, ...) -- Read from C cache (4 bytes @ 0x2000012C) - Data: FC 03 00 00  returns 0x00 (0000ms, 0825ms total)
T22D00 018:893 JLINK_ReadMem (0x0800453C, 0x003C Bytes, ...) -- CPU_ReadMem(128 bytes @ 0x08004500) -- Updating C cache (128 bytes @ 0x08004500) -- Read from C cache (60 bytes @ 0x0800453C) - Data: 30 46 FB F7 1D FF EF E7 00 00 FA 44 00 00 48 43 ...  returns 0x00 (0002ms, 0827ms total)
T25254 019:527 JLINK_Step() -- Read from C cache (2 bytes @ 0x0800453C) -- Simulated  returns 0x00 (0001ms, 0828ms total)
T25254 019:528 JLINK_ReadReg(R15 (PC))  returns 0x0800453E (0000ms, 0828ms total)
T25254 019:528 JLINK_ReadReg(XPSR)  returns 0x61000000 (0000ms, 0828ms total)
T25254 019:528 JLINK_SetBPEx(Addr = 0x08004520, Type = 0xFFFFFFF2)  returns 0x00000006 (0000ms, 0828ms total)
T25254 019:528 JLINK_SetBPEx(Addr = 0x0800453C, Type = 0xFFFFFFF2)  returns 0x00000007 (0000ms, 0828ms total)
T25254 019:528 JLINK_Go() -- CPU_WriteMem(4 bytes @ 0xE0002000) -- CPU_WriteMem(4 bytes @ 0xE0002000) -- CPU_ReadMem(4 bytes @ 0xE0001000) -- CPU_WriteMem(4 bytes @ 0xE0001004) (0008ms, 0836ms total)
T25254 019:636 JLINK_IsHalted()  returns FALSE (0001ms, 0837ms total)
T25254 019:737 JLINK_IsHalted()  returns FALSE (0000ms, 0836ms total)
T25254 019:838 JLINK_IsHalted()  returns FALSE (0000ms, 0836ms total)
T25254 019:939 JLINK_IsHalted()  returns FALSE (0001ms, 0837ms total)
T25254 020:040 JLINK_IsHalted()  returns FALSE (0000ms, 0836ms total)
T25254 020:140 JLINK_IsHalted()  returns FALSE (0001ms, 0837ms total)
T25254 020:241 JLINK_IsHalted()  returns FALSE (0000ms, 0836ms total)
T25254 020:341 JLINK_IsHalted()  returns FALSE (0001ms, 0837ms total)
T25254 020:442 JLINK_IsHalted()  returns FALSE (0000ms, 0836ms total)
T25254 020:542 JLINK_IsHalted()  returns TRUE (0005ms, 0841ms total)
T25254 020:547 JLINK_Halt()  returns 0x00 (0000ms, 0836ms total)
T25254 020:547 JLINK_IsHalted()  returns TRUE (0000ms, 0836ms total)
T25254 020:547 JLINK_IsHalted()  returns TRUE (0000ms, 0836ms total)
T25254 020:547 JLINK_IsHalted()  returns TRUE (0000ms, 0836ms total)
T25254 020:547 JLINK_ReadReg(R15 (PC))  returns 0x0800453C (0000ms, 0836ms total)
T25254 020:547 JLINK_ReadReg(XPSR)  returns 0x61000000 (0000ms, 0836ms total)
T25254 020:547 JLINK_ClrBPEx(BPHandle = 0x00000006)  returns 0x00 (0000ms, 0836ms total)
T25254 020:547 JLINK_ClrBPEx(BPHandle = 0x00000007)  returns 0x00 (0000ms, 0836ms total)
T25254 020:547 JLINK_ReadMemU32(0xE000ED30, 0x0001 Items, ...) -- CPU_ReadMem(4 bytes @ 0xE000ED30) - Data: 03 00 00 00  returns 0x01 (0001ms, 0837ms total)
T25254 020:548 JLINK_ReadMemU32(0xE0001028, 0x0001 Items, ...) -- CPU_ReadMem(4 bytes @ 0xE0001028) - Data: 00 00 00 00  returns 0x01 (0001ms, 0838ms total)
T25254 020:549 JLINK_ReadMemU32(0xE0001038, 0x0001 Items, ...) -- CPU_ReadMem(4 bytes @ 0xE0001038) - Data: 00 02 00 00  returns 0x01 (0000ms, 0838ms total)
T25254 020:549 JLINK_ReadMemU32(0xE0001048, 0x0001 Items, ...) -- CPU_ReadMem(4 bytes @ 0xE0001048) - Data: 00 00 00 00  returns 0x01 (0001ms, 0839ms total)
T25254 020:550 JLINK_ReadMemU32(0xE0001058, 0x0001 Items, ...) -- CPU_ReadMem(4 bytes @ 0xE0001058) - Data: 00 00 00 00  returns 0x01 (0001ms, 0840ms total)
T25254 020:551 JLINK_ReadReg(R0)  returns 0x00000000 (0000ms, 0840ms total)
T25254 020:551 JLINK_ReadReg(R1)  returns 0x3D79DB23 (0000ms, 0840ms total)
T25254 020:551 JLINK_ReadReg(R2)  returns 0x0087008E (0000ms, 0840ms total)
T25254 020:551 JLINK_ReadReg(R3)  returns 0x0000415A (0000ms, 0840ms total)
T25254 020:551 JLINK_ReadReg(R4)  returns 0x20000058 (0000ms, 0840ms total)
T25254 020:551 JLINK_ReadReg(R5)  returns 0x20000070 (0000ms, 0840ms total)
T25254 020:551 JLINK_ReadReg(R6)  returns 0x000003E8 (0000ms, 0840ms total)
T25254 020:551 JLINK_ReadReg(R7)  returns 0x00000000 (0000ms, 0840ms total)
T25254 020:551 JLINK_ReadReg(R8)  returns 0x00000000 (0000ms, 0840ms total)
T25254 020:551 JLINK_ReadReg(R9)  returns 0x00000000 (0000ms, 0840ms total)
T25254 020:551 JLINK_ReadReg(R10)  returns 0x08005468 (0000ms, 0840ms total)
T25254 020:551 JLINK_ReadReg(R11)  returns 0x00000000 (0000ms, 0840ms total)
T25254 020:551 JLINK_ReadReg(R12)  returns 0xC28F5C30 (0000ms, 0840ms total)
T25254 020:551 JLINK_ReadReg(R13 (SP))  returns 0x20000B30 (0001ms, 0841ms total)
T25254 020:552 JLINK_ReadReg(R14)  returns 0x08003F47 (0000ms, 0841ms total)
T25254 020:552 JLINK_ReadReg(R15 (PC))  returns 0x0800453C (0000ms, 0841ms total)
T25254 020:552 JLINK_ReadReg(XPSR)  returns 0x61000000 (0000ms, 0841ms total)
T25254 020:552 JLINK_ReadReg(MSP)  returns 0x20000B30 (0000ms, 0841ms total)
T25254 020:552 JLINK_ReadReg(PSP)  returns 0x00000000 (0000ms, 0841ms total)
T25254 020:552 JLINK_ReadReg(CFBP)  returns 0x04000000 (0000ms, 0841ms total)
T25254 020:552 JLINK_ReadReg(FPSCR)  returns 0x23000010 (0005ms, 0846ms total)
T25254 020:557 JLINK_ReadReg(FPS0)  returns 0x000003FC (0000ms, 0846ms total)
T25254 020:557 JLINK_ReadReg(FPS1)  returns 0x4682B400 (0000ms, 0846ms total)
T25254 020:557 JLINK_ReadReg(FPS2)  returns 0x00000000 (0000ms, 0846ms total)
T25254 020:557 JLINK_ReadReg(FPS3)  returns 0x40000000 (0000ms, 0846ms total)
T25254 020:557 JLINK_ReadReg(FPS4)  returns 0x00000000 (0001ms, 0847ms total)
T25254 020:558 JLINK_ReadReg(FPS5)  returns 0x00000000 (0000ms, 0847ms total)
T25254 020:558 JLINK_ReadReg(FPS6)  returns 0x00000000 (0000ms, 0847ms total)
T25254 020:558 JLINK_ReadReg(FPS7)  returns 0x00000000 (0000ms, 0847ms total)
T25254 020:558 JLINK_ReadReg(FPS8)  returns 0x00000000 (0000ms, 0847ms total)
T25254 020:558 JLINK_ReadReg(FPS9)  returns 0x00000000 (0000ms, 0847ms total)
T25254 020:558 JLINK_ReadReg(FPS10)  returns 0x00000000 (0000ms, 0847ms total)
T25254 020:558 JLINK_ReadReg(FPS11)  returns 0x00000000 (0000ms, 0847ms total)
T25254 020:558 JLINK_ReadReg(FPS12)  returns 0x00000000 (0000ms, 0847ms total)
T25254 020:558 JLINK_ReadReg(FPS13)  returns 0x00000000 (0000ms, 0847ms total)
T25254 020:558 JLINK_ReadReg(FPS14)  returns 0x00000000 (0000ms, 0847ms total)
T25254 020:558 JLINK_ReadReg(FPS15)  returns 0x00000000 (0000ms, 0847ms total)
T25254 020:558 JLINK_ReadReg(FPS16)  returns 0x00000000 (0000ms, 0847ms total)
T25254 020:558 JLINK_ReadReg(FPS17)  returns 0x00000000 (0000ms, 0847ms total)
T25254 020:558 JLINK_ReadReg(FPS18)  returns 0x00000000 (0000ms, 0847ms total)
T25254 020:558 JLINK_ReadReg(FPS19)  returns 0x00000000 (0000ms, 0847ms total)
T25254 020:558 JLINK_ReadReg(FPS20)  returns 0x00000000 (0000ms, 0847ms total)
T25254 020:558 JLINK_ReadReg(FPS21)  returns 0x00000000 (0000ms, 0847ms total)
T25254 020:558 JLINK_ReadReg(FPS22)  returns 0x00000000 (0000ms, 0847ms total)
T25254 020:558 JLINK_ReadReg(FPS23)  returns 0x00000000 (0000ms, 0847ms total)
T25254 020:558 JLINK_ReadReg(FPS24)  returns 0x00000000 (0000ms, 0847ms total)
T25254 020:558 JLINK_ReadReg(FPS25)  returns 0x00000000 (0000ms, 0847ms total)
T25254 020:558 JLINK_ReadReg(FPS26)  returns 0x00000000 (0000ms, 0847ms total)
T25254 020:558 JLINK_ReadReg(FPS27)  returns 0x00000000 (0000ms, 0847ms total)
T25254 020:558 JLINK_ReadReg(FPS28)  returns 0x00000000 (0000ms, 0847ms total)
T25254 020:558 JLINK_ReadReg(FPS29)  returns 0x00000000 (0000ms, 0847ms total)
T25254 020:558 JLINK_ReadReg(FPS30)  returns 0x00000000 (0000ms, 0847ms total)
T25254 020:558 JLINK_ReadReg(FPS31)  returns 0x00000000 (0000ms, 0847ms total)
